! Created Fri Aug 22 10:02:00 2025
# hz S ri R 50
! 2 Port Network Data from SP1.SP block
! freq  reS11  imS11  reS21  imS21  reS12  imS12  reS22  imS22  
!     
         100000000       0.998433594      -0.0531141196        -10.2951975        0.357985764     6.01188986e-05      0.00205575614        0.843118212      -0.0164670396
         200000000       0.993750758       -0.105951309        -10.2631434        0.714074387     0.000239846611      0.00410089293        0.841875623      -0.0328611813
         300000000        0.98599993       -0.158241032        -10.2101995          1.0664211     0.000537317151       0.0061249501         0.83981715       -0.049111155
         400000000       0.975260345       -0.209721762        -10.1368902         1.41324136     0.000949475626      0.00811783251        0.836963913       -0.065148044
         500000000       0.961640051       -0.260145488        -10.0439471         1.75284239      0.00147215509         0.01006997        0.833344467      -0.0809065003
         600000000       0.945273252       -0.309281521        -9.93228344         2.08364951      0.00210017932       0.0119724623        0.828994209      -0.0963257425
         700000000       0.926317097       -0.356919701        -9.80297052         2.40422815      0.00282748681        0.013817202        0.823954559       -0.111350398
         800000000       0.904948058        -0.40287293        -9.65721215         2.71330112      0.00364727039       0.0155969719        0.818272017       -0.125931171
         900000000       0.881358051       -0.446978994        -9.49631799         3.00976113       0.0045521269        0.017305515        0.811997146       -0.140025319
             1e+09       0.855750449       -0.489101662        -9.32167614         3.29267825      0.00553421115       0.0189375769        0.805183524       -0.153596944
           1.1e+09       0.828336123       -0.529131094        -9.13472603         3.56130275      0.00658538856       0.0204889214        0.797886699       -0.166617101
           1.2e+09       0.799329638       -0.566983601        -8.93693242         3.81506343      0.00769738189       0.0219563214        0.790163193       -0.179063733
           1.3e+09       0.768945716       -0.602600832        -8.72976116          4.0535621      0.00886190786       0.0233375272        0.782069567       -0.190921458
           1.4e+09       0.737396032        -0.63594848         -8.5146574         4.27656473       0.0100708005        0.024631217         0.77366158       -0.202181226
           1.5e+09       0.704886424       -0.667014599        -8.29302641         4.48398994       0.0113161189       0.0258369316        0.764993452       -0.212839878
           1.6e+09       0.671614528       -0.695807628        -8.06621749         4.67589556       0.0125902389       0.0269549982        0.756117241       -0.222899625
           1.7e+09       0.637767857       -0.722354224        -7.83551086         4.85246378       0.0138859262        0.027986447        0.747082341       -0.232367477
           1.8e+09       0.603522331        -0.74669699        -7.60210757         5.01398565       0.0151963942       0.0289329235        0.737935088       -0.241254643
           1.9e+09       0.569041209       -0.768892168        -7.36712224         5.16084538       0.0165153444       0.0297965993        0.728718487       -0.249575927
             2e+09       0.534474419       -0.789007384        -7.13157848         5.29350486       0.0178369927       0.0305800853        0.719472027       -0.257349129
           2.1e+09       0.499958223       -0.807119473        -6.89640658         5.41248887        0.019156082       0.0312863476        0.710231601       -0.264594476
           2.2e+09       0.465615176       -0.823312442        -6.66244326         5.51837114       0.0204678842       0.0319186293        0.701029489       -0.271334086
           2.3e+09       0.431554347       -0.837675599        -6.43043314         5.61176161       0.0217681912       0.0324803779        0.691894418       -0.277591471
           2.4e+09       0.397871728        -0.85030186        -6.20103159         5.69329483       0.0230532997         0.03297518        0.682851671       -0.283391093
           2.5e+09       0.364650812       -0.861286245        -5.97480862         5.76361971       0.0243199882       0.0334067037         0.67392324       -0.288757971
           2.6e+09       0.331963289       -0.870724568        -5.75225365         5.82339059       0.0255654908       0.0337786477        0.665128005        -0.29371733
           2.7e+09       0.299869814       -0.878712318        -5.53378077         5.87325957       0.0267874672        0.034094698        0.656481941       -0.298294312
           2.8e+09       0.268420843       -0.885343713        -5.31973441         5.91387008       0.0279839707       0.0343584919        0.647998336       -0.302513722
           2.9e+09       0.237657473       -0.890710923        -5.11039515         5.94585156       0.0291534154       0.0345735875        0.639688011       -0.306399828
             3e+09       0.207612305       -0.894903451         -4.9059855         5.96981522       0.0302945435       0.0347434402        0.631559552       -0.309976194
           3.1e+09       0.178310272        -0.89800764        -4.70667569         5.98635071       0.0314063927       0.0348713833        0.623619523        -0.31326555
           3.2e+09       0.149769458        -0.90010631        -4.51258911         5.99602361       0.0324882652       0.0349606146        0.615872683       -0.316289702
           3.3e+09       0.122001861         -0.9012785        -4.32380765         5.99937371       0.0335396978       0.0350141856         0.60832219       -0.319069456
           3.4e+09      0.0950141256       -0.901599297        -4.14037665         5.99691376        0.034560434       0.0350349958        0.600969789        -0.32162458
           3.5e+09      0.0688082148       -0.901139747        -3.96230946         5.98912896       0.0355503978       0.0350257885        0.593815994       -0.323973775
           3.6e+09      0.0433820367       -0.899966823        -3.78959175         5.97647669       0.0365096697       0.0349891501         0.58686025       -0.326134671
           3.7e+09       0.018730015       -0.898143457        -3.62218544         5.95938672       0.0374384646       0.0349275109        0.580101083       -0.328123832
           3.8e+09    -0.00515639124       -0.895728603        -3.46003216         5.93826169       0.0383371119       0.0348431479         0.57353624       -0.329956776
           3.9e+09     -0.0282882191       -0.892777342        -3.30305652         5.91347775       0.0392060371       0.0347381888        0.567162808       -0.331647999
             4e+09     -0.0506785815       -0.889341007        -3.15116897         5.88538549       0.0400457459       0.0346146165        0.560977329       -0.333211011
           4.1e+09     -0.0723422925       -0.885467332        -3.00426832         5.85431092       0.0408568099       0.0344742752        0.554975896       -0.334658372
           4.2e+09     -0.0932955356       -0.881200611        -2.86224406         5.82055656        0.041639853       0.0343188764         0.54915424       -0.336001738
           4.3e+09      -0.113555571       -0.876581867        -2.72497832          5.7844026       0.0423955411       0.0341500053        0.543507811       -0.337251901
           4.4e+09      -0.133140478       -0.871649027        -2.59234761         5.74610808       0.0431245715       0.0339691279        0.538031841       -0.338418841
           4.5e+09      -0.152068934       -0.866437096        -2.46422441         5.70591209       0.0438276647       0.0337775972        0.532721404       -0.339511763
           4.6e+09      -0.170360019       -0.860978331        -2.34047841         5.66403496       0.0445055566       0.0335766604        0.527571469       -0.340539154
           4.7e+09      -0.188033049       -0.855302415        -2.22097772         5.62067946       0.0451589924       0.0333674654        0.522576942       -0.341508818
           4.8e+09      -0.205107433       -0.849436624        -2.10558978          5.5760319       0.0457887207        0.033151067        0.517732706       -0.342427926
           4.9e+09      -0.221602553       -0.843405985        -1.99418226         5.53026324       0.0463954892       0.0329284337        0.513033648       -0.343303059
             5e+09      -0.237537658       -0.837233436        -1.88662371          5.4835302       0.0469800404        0.032700453        0.508474693       -0.344140245
           5.1e+09      -0.252931782        -0.83093997        -1.78278413         5.43597619       0.0475431087       0.0324679376        0.504050819       -0.344945001
           5.2e+09      -0.267803673       -0.824544779        -1.68253553         5.38773234       0.0480854171       0.0322316306        0.499757084       -0.345722368
           5.3e+09      -0.282171732       -0.818065383        -1.58575225         5.33891835       0.0486076757       0.0319922106        0.495588633       -0.346476948
           5.4e+09      -0.296053969       -0.811517759        -1.49231131         5.28964341       0.0491105791       0.0317502968        0.491540716       -0.347212936
           5.5e+09      -0.309467963       -0.804916456        -1.40209266         5.24000693       0.0495948055       0.0315064532        0.487608696       -0.347934149
           5.6e+09      -0.322430838       -0.798274706        -1.31497938         5.19009935       0.0500610155       0.0312611932        0.483788054       -0.348644061
           5.7e+09      -0.334959239       -0.791604528        -1.23085782         5.14000281       0.0505098513       0.0310149831        0.480074401       -0.349345821
           5.8e+09      -0.347069315       -0.784916821        -1.14961768         5.08979184       0.0509419358       0.0307682462        0.476463476       -0.350042288
           5.9e+09      -0.358776715       -0.778221458        -1.07115213         5.03953391       0.0513578729       0.0305213662        0.472951148       -0.350736047
             6e+09      -0.370096579       -0.771527363       -0.995357778         4.98929006       0.0517582465       0.0302746901        0.469533423       -0.351429434
           6.1e+09      -0.381043536       -0.764842594       -0.922134724         4.93911538       0.0521436211       0.0300285317        0.466206441       -0.352124559
           6.2e+09      -0.391631711       -0.758174408       -0.851386529         4.88905952       0.0525145416       0.0297831737        0.462966473       -0.352823316
           6.3e+09      -0.401874724       -0.751529334       -0.783020183         4.83916714       0.0528715336       0.0295388708        0.459809924       -0.353527412
           6.4e+09      -0.411785701       -0.744913225       -0.716946059          4.7894783       0.0532151034       0.0292958517        0.456733329       -0.354238373
           6.5e+09       -0.42137728       -0.738331324       -0.653077855         4.74002889       0.0535457386       0.0290543213        0.453733352       -0.354957565
           6.6e+09      -0.430661624       -0.731788307        -0.59133252         4.69085093       0.0538639086       0.0288144631        0.450806781       -0.355686204
           6.7e+09      -0.439650431       -0.725288338        -0.53163018         4.64197292       0.0541700647       0.0285764405        0.447950527       -0.356425372
           6.8e+09      -0.448354944       -0.718835108       -0.473894054         4.59342018       0.0544646407       0.0283403987        0.445161619       -0.357176025
           6.9e+09      -0.456785968       -0.712431878       -0.418050362         4.54521504       0.0547480535       0.0281064663        0.442437205       -0.357939007
             7e+09      -0.464953882       -0.706081513        -0.36402824         4.49737718       0.0550207036       0.0278747568        0.439774543       -0.358715056
           7.1e+09       -0.47286865       -0.699786522       -0.311759644          4.4499238       0.0552829755       0.0276453699        0.437170999       -0.359504817
           7.2e+09      -0.480539837       -0.693549085       -0.261179252          4.4028699       0.0555352384       0.0274183926        0.434624045       -0.360308849
           7.3e+09      -0.487976625       -0.687371082       -0.212224375          4.3562284       0.0557778464       0.0271939002        0.432131256       -0.361127629
           7.4e+09      -0.495187822       -0.681254122       -0.164834858         4.31001037       0.0560111396       0.0269719577        0.429690301       -0.361961566
           7.5e+09       -0.50218188       -0.675199566        -0.11895299         4.26422521       0.0562354442       0.0267526206        0.427298947       -0.362811001
           7.6e+09      -0.508966907       -0.669208549      -0.0745234065         4.21888076        0.056451073       0.0265359355         0.42495505       -0.363676216
           7.7e+09      -0.515550679          -0.663282      -0.0314930043         4.17398345       0.0566583261       0.0263219412        0.422656552       -0.364557439
           7.8e+09      -0.521940654       -0.657420662       0.0101891514         4.12953847       0.0568574915       0.0261106694         0.42040148       -0.365454849
           7.9e+09      -0.528143988       -0.651625112       0.0505719118         4.08554982       0.0570488453       0.0259021452         0.41818794       -0.366368579
             8e+09       -0.53416754       -0.645895769       0.0897021297         4.04202049       0.0572326524       0.0256963877        0.416014118       -0.367298724
           8.1e+09      -0.540017891       -0.640232916        0.127624741         3.99895249       0.0574091666       0.0254934108        0.413878271       -0.368245339
           8.2e+09      -0.545701352        -0.63463671        0.164382845           3.956347       0.0575786318       0.0252932235        0.411778726       -0.369208448
           8.3e+09      -0.551223976       -0.629107194        0.200017778         3.91420441       0.0577412815       0.0250958306        0.409713882       -0.370188045
           8.4e+09      -0.556591569       -0.623644311        0.234569194         3.87252442         0.05789734       0.0249012326        0.407682199       -0.371184096
           8.5e+09      -0.561809702       -0.618247909        0.268075127          3.8313061       0.0580470223       0.0247094269        0.405682202       -0.372196543
           8.6e+09      -0.566883717       -0.612917756        0.300572069         3.79054795       0.0581905348       0.0245204073        0.403712473       -0.373225306
           8.7e+09      -0.571818741       -0.607653543        0.332095028         3.75024798       0.0583280754       0.0243341651        0.401771654       -0.374270285
           8.8e+09      -0.576619692       -0.602454898        0.362677599         3.71040373       0.0584598341       0.0241506889        0.399858439       -0.375331363
           8.9e+09      -0.581291291       -0.597321387         0.39235202         3.67101234       0.0585859932        0.023969965        0.397971576       -0.376408406
             9e+09      -0.585838068       -0.592252524         0.42114923          3.6320706       0.0587067277       0.0237919776        0.396109863       -0.377501268
           9.1e+09      -0.590264371       -0.587247777        0.449098929         3.59357498       0.0588222057       0.0236167094        0.394272143       -0.378609787
           9.2e+09      -0.594574376       -0.582306572        0.476229631         3.55552165       0.0589325884       0.0234441412        0.392457309       -0.379733795
           9.3e+09      -0.598772089       -0.577428299        0.502568711         3.51790655       0.0590380308       0.0232742525        0.390664296        -0.38087311
           9.4e+09      -0.602861361       -0.572612316         0.52814246         3.48072541       0.0591386814       0.0231070218        0.388892079       -0.382027542
           9.5e+09      -0.606845887       -0.567857955        0.552976128         3.44397375       0.0592346834       0.0229424261        0.387139676       -0.383196896
           9.6e+09       -0.61072922       -0.563164521        0.577093972         3.40764695       0.0593261739        0.022780442        0.385406142       -0.384380968
           9.7e+09       -0.61451477         -0.5585313        0.600519297         3.37174022       0.0594132849       0.0226210449        0.383690568       -0.385579549
           9.8e+09      -0.618205816       -0.553957562        0.623274496         3.33624869       0.0594961431       0.0224642098        0.381992082       -0.386792427
           9.9e+09      -0.621805508        -0.54944256        0.645381095         3.30116736       0.0595748704        0.022309911        0.380309844       -0.388019383
             1e+10      -0.625316876       -0.544985538        0.666859784         3.26649117        0.059649584       0.0221581225        0.378643047       -0.389260196
          1.01e+10      -0.628742831       -0.540585729        0.687730455         3.23221498       0.0597203965       0.0220088178        0.376990913       -0.390514643
          1.02e+10      -0.632086173       -0.536242357        0.708012239         3.19833362       0.0597874163       0.0218619702        0.375352697       -0.391782499
          1.03e+10      -0.635349595       -0.531954644        0.727723535         3.16484186       0.0598507477       0.0217175528        0.373727679       -0.393063537
          1.04e+10      -0.638535688       -0.527721805        0.746882042         3.13173445        0.059910491       0.0215755386        0.372115167       -0.394357526
          1.05e+10      -0.641646943       -0.523543055        0.765504792         3.09900615       0.0599667427       0.0214359003        0.370514494        -0.39566424
          1.06e+10      -0.644685759       -0.519417607        0.783608174         3.06665169       0.0600195956       0.0212986109         0.36892502       -0.396983446
          1.07e+10      -0.647654445       -0.515344677        0.801207963          3.0346658       0.0600691394       0.0211636433        0.367346127       -0.398314917
          1.08e+10      -0.650555222       -0.511323479        0.818319348         3.00304325       0.0601154601       0.0210309705         0.36577722       -0.399658423
          1.09e+10      -0.653390232       -0.507353234        0.834956952         2.97177881       0.0601586407       0.0209005655        0.364217725       -0.401013734
           1.1e+10      -0.656161533       -0.503433163        0.851134862         2.94086728       0.0601987611       0.0207724017         0.36266709       -0.402380623
          1.11e+10      -0.658871112       -0.499562494        0.866866644         2.91030349       0.0602358984       0.0206464524        0.361124782       -0.403758862
          1.12e+10      -0.661520881       -0.495740459        0.882165372         2.88008231       0.0602701268       0.0205226913        0.359590289       -0.405148226
          1.13e+10      -0.664112681       -0.491966297        0.897043643         2.85019865       0.0603015179       0.0204010924        0.358063115        -0.40654849
          1.14e+10       -0.66664829       -0.488239254          0.9115136         2.82064747       0.0603301407       0.0202816297        0.356542784       -0.407959431
          1.15e+10      -0.669129418       -0.484558582        0.925586949         2.79142377       0.0603560616       0.0201642777        0.355028833       -0.409380827
          1.16e+10      -0.671557718        -0.48092354        0.939274977         2.76252262        0.060379345       0.0200490113         0.35352082       -0.410812459
